
T1CC0 000:573 SEGGER J-Link V4.84f Log File (0001ms, 0267ms total)
T1CC0 000:573 DLL Compiled: May  9 2014 20:05:42 (0001ms, 0267ms total)
T1CC0 000:573 Logging started @ 2014-10-16 11:50 (0001ms, 0267ms total)
T1CC0 000:574 JLINK_SetWarnOutHandler(...) (0000ms, 0267ms total)
T1CC0 000:574 JLINK_OpenEx(...)
Firmware: J-Link ARM V8 compiled Nov 25 2013 19:20:08
Hardware: V8.00
S/N: 872415023
Feature(s): RDI,FlashDL,FlashBP,JFlash,GDBFULL  returns O.K. (0262ms, 0529ms total)
T1CC0 000:836 JLINK_SetErrorOutHandler(...) (0000ms, 0529ms total)
T1CC0 000:836 JLINK_ExecCommand("ProjectFile = "E:\OtherWork\USB_Driver\trunk\USB_DriverSTM32F103\RVMDK\JLinkSettings.ini"", ...)  returns 0x00 (0000ms, 0529ms total)
T1CC0 000:839 JLINK_ExecCommand("Device = STM32F103ZE", ...)Device "STM32F103ZE" selected (512 KB flash, 64 KB RAM).  returns 0x00 (0008ms, 0537ms total)
T1CC0 000:847 JLINK_ExecCommand("DisableConnectionTimeout", ...)  returns 0x01 (0000ms, 0537ms total)
T1CC0 000:847 JLINK_GetHardwareVersion()  returns 0x13880 (0000ms, 0537ms total)
T1CC0 000:847 JLINK_GetDLLVersion()  returns 48406 (0000ms, 0537ms total)
T1CC0 000:847 JLINK_GetFirmwareString(...) (0000ms, 0537ms total)
T1CC0 000:859 JLINK_GetDLLVersion()  returns 48406 (0000ms, 0537ms total)
T1CC0 000:859 JLINK_GetCompileDateTime() (0000ms, 0537ms total)
T1CC0 000:862 JLINK_GetFirmwareString(...) (0000ms, 0537ms total)
T1CC0 000:865 JLINK_GetHardwareVersion()  returns 0x13880 (0000ms, 0537ms total)
T1CC0 000:877 JLINK_TIF_Select(JLINKARM_TIF_SWD)  returns 0x00 (0002ms, 0539ms total)
T1CC0 000:879 JLINK_SetSpeed(2000) (0000ms, 0539ms total)
T1CC0 000:879 JLINK_GetId() >0x108 TIF>Found SWD-DP with ID 0x1BA01477 >0x0D TIF> >0x28 TIF> >0x0D TIF> >0x28 TIF> >0x0D TIF> >0x21 TIF> >0x0D TIF> >0x28 TIF> >0x0D TIF> >0x28 TIF> >0x0D TIF> >0x28 TIF> >0x0D TIF> >0x21 TIF> >0x0D TIF> >0x21 TIF> >0x0D TIF> >0x28 TIF> >0x0D TIF> >0x21 TIF> >0x0D TIF> >0x21 TIF> >0x108 TIF>Found SWD-DP with ID 0x1BA01477 >0x0D TIF> >0x21 TIF> >0x0D TIF> >0x28 TIF> >0x0D TIF> >0x28 TIF> >0x0D TIF> >0x21 TIF> >0x0D TIF> >0x28 TIF> >0x0D TIF> >0x21 TIF> >0x0D TIF> >0x21 TIF>
 >0x0D TIF> >0x21 TIF> >0x0D TIF> >0x21 TIF> >0x0D TIF> >0x28 TIF> >0x0D TIF> >0x28 TIF> >0x0D TIF> >0x21 TIF> >0x0D TIF> >0x28 TIF> >0x0D TIF> >0x28 TIF> >0x0D TIF> >0x28 TIF> >0x0D TIF> >0x21 TIF> >0x0D TIF> >0x21 TIF> >0x0D TIF> >0x28 TIF> >0x0D TIF> >0x21 TIF> >0x0D TIF> >0x21 TIF>Found Cortex-M3 r1p1, Little endian. -- CPU_WriteMem(4 bytes @ 0xE0002000) -- CPU_ReadMem(4 bytes @ 0xE000EDF0) -- CPU_ReadMem(4 bytes @ 0xE0002000)FPUnit: 6 code (BP) slots and 2 literal slots
 -- CPU_ReadMem(4 bytes @ 0xE000EDFC) -- CPU_ReadMem(4 bytes @ 0xE0001000) -- CPU_WriteMem(4 bytes @ 0xE0001000) -- CPU_ReadMem(4 bytes @ 0xE00FF010)TPIU fitted. -- CPU_ReadMem(4 bytes @ 0xE00FF014)ETM fitted. -- CPU_ReadMem(4 bytes @ 0xE00FF018) >0x0D TIF> >0x21 TIF>  returns 0x1BA01477 (0060ms, 0599ms total)
T1CC0 000:939 JLINK_GetDeviceFamily()  returns 3 (0000ms, 0599ms total)
T1CC0 000:941 JLINK_ReadMem (0xE00FFFF0, 0x0010 Bytes, ...) -- CPU is running -- CPU_ReadMem(16 bytes @ 0xE00FFFF0) -- Data:  0D 00 00 00 10 00 00 00 05 00 00 00 B1 00 00 00  returns 0x00 (0001ms, 0600ms total)
T1CC0 000:942 JLINK_ReadMem (0xE00FFFD0, 0x0020 Bytes, ...) -- CPU is running -- CPU_ReadMem(32 bytes @ 0xE00FFFD0) -- Data:  00 00 00 00 00 00 00 00 00 00 00 00 00 00 00 00 ...  returns 0x00 (0001ms, 0601ms total)
T1CC0 000:944 JLINK_ReadMem (0xE00FF000, 0x0018 Bytes, ...) -- CPU is running -- CPU_ReadMem(24 bytes @ 0xE00FF000) -- Data:  03 F0 F0 FF 03 20 F0 FF 03 30 F0 FF 03 10 F0 FF ...  returns 0x00 (0001ms, 0603ms total)
T1CC0 000:945 JLINK_ReadMemU32(0xE000ED00, 0x0001 Items, ...) -- CPU is running -- CPU_ReadMem(4 bytes @ 0xE000ED00) -- Data:  31 C2 1F 41  returns 0x01 (0000ms, 0603ms total)
T1CC0 000:945 JLINK_SetResetType(JLINKARM_RESET_TYPE_NORMAL)  returns JLINKARM_RESET_TYPE_NORMAL (0000ms, 0603ms total)
T1CC0 000:945 JLINK_Reset() -- CPU is running -- CPU_WriteMem(4 bytes @ 0xE000EDF0) -- CPU is running -- CPU_WriteMem(4 bytes @ 0xE000EDFC) >0x35 TIF> -- CPU is running -- CPU_WriteMem(4 bytes @ 0xE000ED0C) -- CPU is running -- CPU_ReadMem(4 bytes @ 0xE000EDF0) -- CPU is running -- CPU_ReadMem(4 bytes @ 0xE000EDF0) -- CPU is running -- CPU_WriteMem(4 bytes @ 0xE000EDF0) -- CPU is running -- CPU_WriteMem(4 bytes @ 0xE000EDFC) -- CPU is running -- CPU_ReadMem(4 bytes @ 0xE000EDF0)
 -- CPU_WriteMem(4 bytes @ 0xE0002000) -- CPU_ReadMem(4 bytes @ 0xE000EDFC) -- CPU_ReadMem(4 bytes @ 0xE0001000) (0020ms, 0623ms total)
T1CC0 000:965 JLINK_Halt()  returns 0x00 (0000ms, 0623ms total)
T1CC0 000:965 JLINK_IsHalted()  returns TRUE (0000ms, 0623ms total)
T1CC0 000:965 JLINK_ReadMemU32(0xE000EDF0, 0x0001 Items, ...) -- CPU_ReadMem(4 bytes @ 0xE000EDF0) -- Data:  03 00 03 00  returns 0x01 (0001ms, 0624ms total)
T1CC0 000:966 JLINK_WriteU32(0xE000EDF0, 0xA05F0003) -- CPU_WriteMem(4 bytes @ 0xE000EDF0)  returns 0x00 (0001ms, 0625ms total)
T1CC0 000:967 JLINK_WriteU32(0xE000EDFC, 0x01000000) -- CPU_WriteMem(4 bytes @ 0xE000EDFC)  returns 0x00 (0001ms, 0626ms total)
T1CC0 001:155 JLINK_GetHWStatus(...)  returns 0x00 (0000ms, 0626ms total)
T1CC0 001:166 JLINK_GetNumBPUnits(Type = 0xFFFFFF00)  returns 0x06 (0001ms, 0627ms total)
T1CC0 001:167 JLINK_GetNumBPUnits(Type = 0xF0)  returns 0x2000 (0000ms, 0627ms total)
T1CC0 001:167 JLINK_GetNumWPUnits()  returns 0x04 (0000ms, 0627ms total)
T1CC0 001:175 JLINK_GetSpeed()  returns 0x7D0 (0000ms, 0627ms total)
T1CC0 001:186 JLINK_ReadMemU32(0xE000E004, 0x0001 Items, ...) -- CPU_ReadMem(4 bytes @ 0xE000E004) -- Data:  01 00 00 00  returns 0x01 (0001ms, 0628ms total)
T1CC0 001:187 JLINK_ReadMemU32(0xE000E004, 0x0001 Items, ...) -- CPU_ReadMem(4 bytes @ 0xE000E004) -- Data:  01 00 00 00  returns 0x01 (0001ms, 0629ms total)
T1CC0 001:188 JLINK_WriteMem(0xE0001000, 0x001C Bytes, ...) -- Data:  01 00 00 00 00 00 00 00 00 00 00 00 00 00 00 00 ... -- CPU_WriteMem(28 bytes @ 0xE0001000)  returns 0x1C (0001ms, 0630ms total)
T1CC0 001:189 JLINK_ReadMem (0xE0001000, 0x001C Bytes, ...) -- CPU_ReadMem(28 bytes @ 0xE0001000) -- Data:  01 00 00 40 00 00 00 00 00 00 00 00 00 00 00 00 ...  returns 0x00 (0000ms, 0630ms total)
T1CC0 001:189 JLINK_Halt()  returns 0x00 (0000ms, 0630ms total)
T1CC0 001:189 JLINK_IsHalted()  returns TRUE (0000ms, 0630ms total)
T1CC0 001:192 JLINK_WriteMem(0x20000000, 0x0164 Bytes, ...) -- Data:  00 BE 0A E0 0D 78 2D 06 68 40 08 24 40 00 00 D3 ... -- CPU_WriteMem(356 bytes @ 0x20000000)  returns 0x164 (0005ms, 0635ms total)
T1CC0 001:197 JLINK_WriteReg(R0, 0x08000000)  returns 0x00 (0000ms, 0635ms total)
T1CC0 001:197 JLINK_WriteReg(R1, 0x007A1200)  returns 0x00 (0000ms, 0635ms total)
T1CC0 001:197 JLINK_WriteReg(R2, 0x00000001)  returns 0x00 (0000ms, 0635ms total)
T1CC0 001:197 JLINK_WriteReg(R3, 0x00000000)  returns 0x00 (0000ms, 0635ms total)
T1CC0 001:197 JLINK_WriteReg(R4, 0x00000000)  returns 0x00 (0000ms, 0635ms total)
T1CC0 001:197 JLINK_WriteReg(R5, 0x00000000)  returns 0x00 (0000ms, 0635ms total)
T1CC0 001:197 JLINK_WriteReg(R6, 0x00000000)  returns 0x00 (0000ms, 0635ms total)
T1CC0 001:197 JLINK_WriteReg(R7, 0x00000000)  returns 0x00 (0000ms, 0635ms total)
T1CC0 001:197 JLINK_WriteReg(R8, 0x00000000)  returns 0x00 (0000ms, 0635ms total)
T1CC0 001:197 JLINK_WriteReg(R9, 0x20000160)  returns 0x00 (0000ms, 0635ms total)
T1CC0 001:197 JLINK_WriteReg(R10, 0x00000000)  returns 0x00 (0000ms, 0635ms total)
T1CC0 001:197 JLINK_WriteReg(R11, 0x00000000)  returns 0x00 (0000ms, 0635ms total)
T1CC0 001:197 JLINK_WriteReg(R12, 0x00000000)  returns 0x00 (0000ms, 0635ms total)
T1CC0 001:197 JLINK_WriteReg(R13 (SP), 0x20000800)  returns 0x00 (0000ms, 0635ms total)
T1CC0 001:197 JLINK_WriteReg(R14, 0x20000001)  returns 0x00 (0000ms, 0635ms total)
T1CC0 001:197 JLINK_WriteReg(R15 (PC), 0x20000038)  returns 0x00 (0000ms, 0635ms total)
T1CC0 001:197 JLINK_WriteReg(XPSR, 0x01000000)  returns 0x00 (0000ms, 0635ms total)
T1CC0 001:197 JLINK_WriteReg(MSP, 0x20000800)  returns 0x00 (0000ms, 0635ms total)
T1CC0 001:197 JLINK_WriteReg(PSP, 0x20000800)  returns 0x00 (0000ms, 0635ms total)
T1CC0 001:197 JLINK_WriteReg(CFBP, 0x00000000)  returns 0x00 (0000ms, 0635ms total)
T1CC0 001:197 JLINK_SetBPEx(Addr = 0x20000000, Type = 0xFFFFFFF2) -- CPU_ReadMem(2 bytes @ 0x20000000)  returns 0x00000001 (0001ms, 0636ms total)
T1CC0 001:198 JLINK_Go() -- CPU_WriteMem(2 bytes @ 0x20000000) -- CPU_WriteMem(4 bytes @ 0xE0002008) -- CPU_WriteMem(4 bytes @ 0xE000200C) -- CPU_WriteMem(4 bytes @ 0xE0002010) -- CPU_WriteMem(4 bytes @ 0xE0002014) -- CPU_WriteMem(4 bytes @ 0xE0002018) -- CPU_WriteMem(4 bytes @ 0xE000201C) -- CPU_WriteMem(4 bytes @ 0xE0001004) (0008ms, 0644ms total)
T1CC0 001:206 JLINK_IsHalted() -- CPU_ReadMem(2 bytes @ 0x20000000)  returns TRUE (0005ms, 0649ms total)
T1CC0 001:211 JLINK_ReadReg(R15 (PC))  returns 0x20000000 (0000ms, 0644ms total)
T1CC0 001:211 JLINK_ClrBPEx(BPHandle = 0x00000001)  returns 0x00 (0000ms, 0644ms total)
T1CC0 001:211 JLINK_ReadReg(R0)  returns 0x00000000 (0000ms, 0644ms total)
T1CC0 001:212 JLINK_WriteReg(R0, 0x08000000)  returns 0x00 (0000ms, 0644ms total)
T1CC0 001:212 JLINK_WriteReg(R1, 0x007A1200)  returns 0x00 (0000ms, 0644ms total)
T1CC0 001:212 JLINK_WriteReg(R2, 0x00000001)  returns 0x00 (0000ms, 0644ms total)
T1CC0 001:212 JLINK_WriteReg(R3, 0x00000000)  returns 0x00 (0000ms, 0644ms total)
T1CC0 001:212 JLINK_WriteReg(R4, 0x00000000)  returns 0x00 (0000ms, 0644ms total)
T1CC0 001:212 JLINK_WriteReg(R5, 0x00000000)  returns 0x00 (0000ms, 0644ms total)
T1CC0 001:212 JLINK_WriteReg(R6, 0x00000000)  returns 0x00 (0000ms, 0644ms total)
T1CC0 001:212 JLINK_WriteReg(R7, 0x00000000)  returns 0x00 (0000ms, 0644ms total)
T1CC0 001:212 JLINK_WriteReg(R8, 0x00000000)  returns 0x00 (0000ms, 0644ms total)
T1CC0 001:212 JLINK_WriteReg(R9, 0x20000160)  returns 0x00 (0000ms, 0644ms total)
T1CC0 001:212 JLINK_WriteReg(R10, 0x00000000)  returns 0x00 (0000ms, 0644ms total)
T1CC0 001:212 JLINK_WriteReg(R11, 0x00000000)  returns 0x00 (0000ms, 0644ms total)
T1CC0 001:212 JLINK_WriteReg(R12, 0x00000000)  returns 0x00 (0000ms, 0644ms total)
T1CC0 001:212 JLINK_WriteReg(R13 (SP), 0x20000800)  returns 0x00 (0000ms, 0644ms total)
T1CC0 001:212 JLINK_WriteReg(R14, 0x20000001)  returns 0x00 (0000ms, 0644ms total)
T1CC0 001:212 JLINK_WriteReg(R15 (PC), 0x2000007C)  returns 0x00 (0000ms, 0644ms total)
T1CC0 001:212 JLINK_WriteReg(XPSR, 0x01000000)  returns 0x00 (0000ms, 0644ms total)
T1CC0 001:212 JLINK_WriteReg(MSP, 0x20000800)  returns 0x00 (0000ms, 0644ms total)
T1CC0 001:212 JLINK_WriteReg(PSP, 0x20000800)  returns 0x00 (0000ms, 0644ms total)
T1CC0 001:212 JLINK_WriteReg(CFBP, 0x00000000)  returns 0x00 (0000ms, 0644ms total)
T1CC0 001:212 JLINK_SetBPEx(Addr = 0x20000000, Type = 0xFFFFFFF2)  returns 0x00000002 (0000ms, 0644ms total)
T1CC0 001:212 JLINK_Go() (0004ms, 0648ms total)
T1CC0 001:216 JLINK_IsHalted()  returns FALSE (0000ms, 0648ms total)
T1CC0 001:327 JLINK_IsHalted() -- CPU_ReadMem(2 bytes @ 0x20000000)  returns TRUE (0004ms, 0652ms total)
T1CC0 001:331 JLINK_ReadReg(R15 (PC))  returns 0x20000000 (0000ms, 0648ms total)
T1CC0 001:331 JLINK_ClrBPEx(BPHandle = 0x00000002)  returns 0x00 (0000ms, 0648ms total)
T1CC0 001:331 JLINK_ReadReg(R0)  returns 0x00000000 (0000ms, 0648ms total)
T1CC0 001:382 JLINK_WriteReg(R0, 0x00000001)  returns 0x00 (0001ms, 0649ms total)
T1CC0 001:383 JLINK_WriteReg(R1, 0x007A1200)  returns 0x00 (0000ms, 0649ms total)
T1CC0 001:383 JLINK_WriteReg(R2, 0x00000001)  returns 0x00 (0000ms, 0649ms total)
T1CC0 001:383 JLINK_WriteReg(R3, 0x00000000)  returns 0x00 (0000ms, 0649ms total)
T1CC0 001:383 JLINK_WriteReg(R4, 0x00000000)  returns 0x00 (0000ms, 0649ms total)
T1CC0 001:383 JLINK_WriteReg(R5, 0x00000000)  returns 0x00 (0000ms, 0649ms total)
T1CC0 001:383 JLINK_WriteReg(R6, 0x00000000)  returns 0x00 (0000ms, 0649ms total)
T1CC0 001:383 JLINK_WriteReg(R7, 0x00000000)  returns 0x00 (0000ms, 0649ms total)
T1CC0 001:383 JLINK_WriteReg(R8, 0x00000000)  returns 0x00 (0000ms, 0649ms total)
T1CC0 001:383 JLINK_WriteReg(R9, 0x20000160)  returns 0x00 (0000ms, 0649ms total)
T1CC0 001:383 JLINK_WriteReg(R10, 0x00000000)  returns 0x00 (0000ms, 0649ms total)
T1CC0 001:383 JLINK_WriteReg(R11, 0x00000000)  returns 0x00 (0000ms, 0649ms total)
T1CC0 001:383 JLINK_WriteReg(R12, 0x00000000)  returns 0x00 (0000ms, 0649ms total)
T1CC0 001:383 JLINK_WriteReg(R13 (SP), 0x20000800)  returns 0x00 (0000ms, 0649ms total)
T1CC0 001:383 JLINK_WriteReg(R14, 0x20000001)  returns 0x00 (0000ms, 0649ms total)
T1CC0 001:383 JLINK_WriteReg(R15 (PC), 0x2000006A)  returns 0x00 (0000ms, 0649ms total)
T1CC0 001:383 JLINK_WriteReg(XPSR, 0x01000000)  returns 0x00 (0000ms, 0649ms total)
T1CC0 001:383 JLINK_WriteReg(MSP, 0x20000800)  returns 0x00 (0000ms, 0649ms total)
T1CC0 001:383 JLINK_WriteReg(PSP, 0x20000800)  returns 0x00 (0000ms, 0649ms total)
T1CC0 001:383 JLINK_WriteReg(CFBP, 0x00000000)  returns 0x00 (0000ms, 0649ms total)
T1CC0 001:383 JLINK_SetBPEx(Addr = 0x20000000, Type = 0xFFFFFFF2)  returns 0x00000003 (0000ms, 0649ms total)
T1CC0 001:383 JLINK_Go() (0002ms, 0651ms total)
T1CC0 001:385 JLINK_IsHalted() -- CPU_ReadMem(2 bytes @ 0x20000000)  returns TRUE (0004ms, 0655ms total)
T1CC0 001:389 JLINK_ReadReg(R15 (PC))  returns 0x20000000 (0000ms, 0651ms total)
T1CC0 001:389 JLINK_ClrBPEx(BPHandle = 0x00000003)  returns 0x00 (0000ms, 0651ms total)
T1CC0 001:389 JLINK_ReadReg(R0)  returns 0x00000000 (0000ms, 0651ms total)
T1CC0 001:394 JLINK_WriteMem(0x20000000, 0x0164 Bytes, ...) -- Data:  00 BE 0A E0 0D 78 2D 06 68 40 08 24 40 00 00 D3 ... -- CPU_WriteMem(356 bytes @ 0x20000000)  returns 0x164 (0005ms, 0656ms total)
T1CC0 001:399 JLINK_WriteReg(R0, 0x08000000)  returns 0x00 (0000ms, 0656ms total)
T1CC0 001:399 JLINK_WriteReg(R1, 0x007A1200)  returns 0x00 (0000ms, 0656ms total)
T1CC0 001:399 JLINK_WriteReg(R2, 0x00000002)  returns 0x00 (0000ms, 0656ms total)
T1CC0 001:399 JLINK_WriteReg(R3, 0x00000000)  returns 0x00 (0000ms, 0656ms total)
T1CC0 001:399 JLINK_WriteReg(R4, 0x00000000)  returns 0x00 (0000ms, 0656ms total)
T1CC0 001:399 JLINK_WriteReg(R5, 0x00000000)  returns 0x00 (0000ms, 0656ms total)
T1CC0 001:399 JLINK_WriteReg(R6, 0x00000000)  returns 0x00 (0000ms, 0656ms total)
T1CC0 001:399 JLINK_WriteReg(R7, 0x00000000)  returns 0x00 (0000ms, 0656ms total)
T1CC0 001:399 JLINK_WriteReg(R8, 0x00000000)  returns 0x00 (0000ms, 0656ms total)
T1CC0 001:399 JLINK_WriteReg(R9, 0x20000160)  returns 0x00 (0000ms, 0656ms total)
T1CC0 001:399 JLINK_WriteReg(R10, 0x00000000)  returns 0x00 (0000ms, 0656ms total)
T1CC0 001:399 JLINK_WriteReg(R11, 0x00000000)  returns 0x00 (0000ms, 0656ms total)
T1CC0 001:399 JLINK_WriteReg(R12, 0x00000000)  returns 0x00 (0000ms, 0656ms total)
T1CC0 001:399 JLINK_WriteReg(R13 (SP), 0x20000800)  returns 0x00 (0000ms, 0656ms total)
T1CC0 001:399 JLINK_WriteReg(R14, 0x20000001)  returns 0x00 (0000ms, 0656ms total)
T1CC0 001:399 JLINK_WriteReg(R15 (PC), 0x20000038)  returns 0x00 (0000ms, 0656ms total)
T1CC0 001:399 JLINK_WriteReg(XPSR, 0x01000000)  returns 0x00 (0000ms, 0656ms total)
T1CC0 001:399 JLINK_WriteReg(MSP, 0x20000800)  returns 0x00 (0000ms, 0656ms total)
T1CC0 001:399 JLINK_WriteReg(PSP, 0x20000800)  returns 0x00 (0000ms, 0656ms total)
T1CC0 001:399 JLINK_WriteReg(CFBP, 0x00000000)  returns 0x00 (0000ms, 0656ms total)
T1CC0 001:399 JLINK_SetBPEx(Addr = 0x20000000, Type = 0xFFFFFFF2) -- CPU_ReadMem(2 bytes @ 0x20000000)  returns 0x00000004 (0001ms, 0657ms total)
T1CC0 001:400 JLINK_Go() -- CPU_WriteMem(2 bytes @ 0x20000000) (0002ms, 0659ms total)
T1CC0 001:402 JLINK_IsHalted() -- CPU_ReadMem(2 bytes @ 0x20000000)  returns TRUE (0005ms, 0664ms total)
T1CC0 001:407 JLINK_ReadReg(R15 (PC))  returns 0x20000000 (0000ms, 0659ms total)
T1CC0 001:407 JLINK_ClrBPEx(BPHandle = 0x00000004)  returns 0x00 (0000ms, 0659ms total)
T1CC0 001:407 JLINK_ReadReg(R0)  returns 0x00000000 (0000ms, 0659ms total)
T1CC0 001:407 JLINK_WriteMem(0x20000164, 0x0400 Bytes, ...) -- Data:  50 06 00 20 45 01 00 08 DF 0B 00 08 45 0B 00 08 ... -- CPU_WriteMem(1024 bytes @ 0x20000164)  returns 0x400 (0011ms, 0670ms total)
T1CC0 001:418 JLINK_WriteReg(R0, 0x08000000)  returns 0x00 (0000ms, 0670ms total)
T1CC0 001:418 JLINK_WriteReg(R1, 0x00000400)  returns 0x00 (0000ms, 0670ms total)
T1CC0 001:418 JLINK_WriteReg(R2, 0x20000164)  returns 0x00 (0000ms, 0670ms total)
T1CC0 001:418 JLINK_WriteReg(R3, 0x00000000)  returns 0x00 (0000ms, 0670ms total)
T1CC0 001:418 JLINK_WriteReg(R4, 0x00000000)  returns 0x00 (0000ms, 0670ms total)
T1CC0 001:418 JLINK_WriteReg(R5, 0x00000000)  returns 0x00 (0000ms, 0670ms total)
T1CC0 001:418 JLINK_WriteReg(R6, 0x00000000)  returns 0x00 (0000ms, 0670ms total)
T1CC0 001:418 JLINK_WriteReg(R7, 0x00000000)  returns 0x00 (0000ms, 0670ms total)
T1CC0 001:418 JLINK_WriteReg(R8, 0x00000000)  returns 0x00 (0000ms, 0670ms total)
T1CC0 001:418 JLINK_WriteReg(R9, 0x20000160)  returns 0x00 (0000ms, 0670ms total)
T1CC0 001:418 JLINK_WriteReg(R10, 0x00000000)  returns 0x00 (0000ms, 0670ms total)
T1CC0 001:418 JLINK_WriteReg(R11, 0x00000000)  returns 0x00 (0000ms, 0670ms total)
T1CC0 001:418 JLINK_WriteReg(R12, 0x00000000)  returns 0x00 (0000ms, 0670ms total)
T1CC0 001:418 JLINK_WriteReg(R13 (SP), 0x20000800)  returns 0x00 (0000ms, 0670ms total)
T1CC0 001:418 JLINK_WriteReg(R14, 0x20000001)  returns 0x00 (0000ms, 0670ms total)
T1CC0 001:418 JLINK_WriteReg(R15 (PC), 0x200000F4)  returns 0x00 (0000ms, 0670ms total)
T1CC0 001:418 JLINK_WriteReg(XPSR, 0x01000000)  returns 0x00 (0001ms, 0671ms total)
T1CC0 001:419 JLINK_WriteReg(MSP, 0x20000800)  returns 0x00 (0000ms, 0671ms total)
T1CC0 001:419 JLINK_WriteReg(PSP, 0x20000800)  returns 0x00 (0000ms, 0671ms total)
T1CC0 001:419 JLINK_WriteReg(CFBP, 0x00000000)  returns 0x00 (0000ms, 0671ms total)
T1CC0 001:419 JLINK_SetBPEx(Addr = 0x20000000, Type = 0xFFFFFFF2)  returns 0x00000005 (0000ms, 0671ms total)
T1CC0 001:419 JLINK_Go() (0002ms, 0673ms total)
T1CC0 001:421 JLINK_IsHalted()  returns FALSE (0000ms, 0673ms total)
T1CC0 001:494 JLINK_IsHalted() -- CPU_ReadMem(2 bytes @ 0x20000000)  returns TRUE (0004ms, 0677ms total)
T1CC0 001:498 JLINK_ReadReg(R15 (PC))  returns 0x20000000 (0000ms, 0673ms total)
T1CC0 001:498 JLINK_ClrBPEx(BPHandle = 0x00000005)  returns 0x00 (0000ms, 0673ms total)
T1CC0 001:498 JLINK_ReadReg(R0)  returns 0x00000000 (0000ms, 0673ms total)
T1CC0 001:499 JLINK_WriteMem(0x20000164, 0x0400 Bytes, ...) -- Data:  4C F2 80 02 11 43 C0 F8 00 1C 70 47 00 50 00 40 ... -- CPU_WriteMem(1024 bytes @ 0x20000164)  returns 0x400 (0011ms, 0684ms total)
T1CC0 001:510 JLINK_WriteReg(R0, 0x08000400)  returns 0x00 (0000ms, 0684ms total)
T1CC0 001:510 JLINK_WriteReg(R1, 0x00000400)  returns 0x00 (0000ms, 0684ms total)
T1CC0 001:510 JLINK_WriteReg(R2, 0x20000164)  returns 0x00 (0000ms, 0684ms total)
T1CC0 001:510 JLINK_WriteReg(R3, 0x00000000)  returns 0x00 (0000ms, 0684ms total)
T1CC0 001:510 JLINK_WriteReg(R4, 0x00000000)  returns 0x00 (0000ms, 0684ms total)
T1CC0 001:510 JLINK_WriteReg(R5, 0x00000000)  returns 0x00 (0000ms, 0684ms total)
T1CC0 001:510 JLINK_WriteReg(R6, 0x00000000)  returns 0x00 (0000ms, 0684ms total)
T1CC0 001:510 JLINK_WriteReg(R7, 0x00000000)  returns 0x00 (0000ms, 0684ms total)
T1CC0 001:510 JLINK_WriteReg(R8, 0x00000000)  returns 0x00 (0000ms, 0684ms total)
T1CC0 001:510 JLINK_WriteReg(R9, 0x20000160)  returns 0x00 (0000ms, 0684ms total)
T1CC0 001:510 JLINK_WriteReg(R10, 0x00000000)  returns 0x00 (0000ms, 0684ms total)
T1CC0 001:510 JLINK_WriteReg(R11, 0x00000000)  returns 0x00 (0000ms, 0684ms total)
T1CC0 001:510 JLINK_WriteReg(R12, 0x00000000)  returns 0x00 (0000ms, 0684ms total)
T1CC0 001:510 JLINK_WriteReg(R13 (SP), 0x20000800)  returns 0x00 (0000ms, 0684ms total)
T1CC0 001:510 JLINK_WriteReg(R14, 0x20000001)  returns 0x00 (0000ms, 0684ms total)
T1CC0 001:510 JLINK_WriteReg(R15 (PC), 0x200000F4)  returns 0x00 (0000ms, 0684ms total)
T1CC0 001:510 JLINK_WriteReg(XPSR, 0x01000000)  returns 0x00 (0000ms, 0684ms total)
T1CC0 001:510 JLINK_WriteReg(MSP, 0x20000800)  returns 0x00 (0000ms, 0684ms total)
T1CC0 001:510 JLINK_WriteReg(PSP, 0x20000800)  returns 0x00 (0000ms, 0684ms total)
T1CC0 001:510 JLINK_WriteReg(CFBP, 0x00000000)  returns 0x00 (0000ms, 0684ms total)
T1CC0 001:510 JLINK_SetBPEx(Addr = 0x20000000, Type = 0xFFFFFFF2)  returns 0x00000006 (0000ms, 0684ms total)
T1CC0 001:510 JLINK_Go() (0002ms, 0686ms total)
T1CC0 001:512 JLINK_IsHalted()  returns FALSE (0001ms, 0687ms total)
T1CC0 001:532 JLINK_IsHalted()  returns FALSE (0000ms, 0686ms total)
T1CC0 001:533 JLINK_IsHalted()  returns FALSE (0000ms, 0686ms total)
T1CC0 001:534 JLINK_IsHalted()  returns FALSE (0000ms, 0686ms total)
T1CC0 001:535 JLINK_IsHalted()  returns FALSE (0000ms, 0686ms total)
T1CC0 001:536 JLINK_IsHalted()  returns FALSE (0000ms, 0686ms total)
T1CC0 001:537 JLINK_IsHalted()  returns FALSE (0000ms, 0686ms total)
T1CC0 001:538 JLINK_IsHalted()  returns FALSE (0000ms, 0686ms total)
T1CC0 001:539 JLINK_IsHalted()  returns FALSE (0000ms, 0686ms total)
T1CC0 001:540 JLINK_IsHalted()  returns FALSE (0000ms, 0686ms total)
T1CC0 001:541 JLINK_IsHalted()  returns FALSE (0000ms, 0686ms total)
T1CC0 001:542 JLINK_IsHalted()  returns FALSE (0000ms, 0686ms total)
T1CC0 001:543 JLINK_IsHalted()  returns FALSE (0000ms, 0686ms total)
T1CC0 001:544 JLINK_IsHalted() -- CPU_ReadMem(2 bytes @ 0x20000000)  returns TRUE (0004ms, 0690ms total)
T1CC0 001:548 JLINK_ReadReg(R15 (PC))  returns 0x20000000 (0000ms, 0686ms total)
T1CC0 001:548 JLINK_ClrBPEx(BPHandle = 0x00000006)  returns 0x00 (0000ms, 0686ms total)
T1CC0 001:548 JLINK_ReadReg(R0)  returns 0x00000000 (0000ms, 0686ms total)
T1CC0 001:549 JLINK_WriteMem(0x20000164, 0x0400 Bytes, ...) -- Data:  68 D1 80 78 01 28 04 D0 02 28 04 D0 03 28 04 D0 ... -- CPU_WriteMem(1024 bytes @ 0x20000164)  returns 0x400 (0011ms, 0697ms total)
T1CC0 001:560 JLINK_WriteReg(R0, 0x08000800)  returns 0x00 (0000ms, 0697ms total)
T1CC0 001:560 JLINK_WriteReg(R1, 0x00000400)  returns 0x00 (0000ms, 0697ms total)
T1CC0 001:560 JLINK_WriteReg(R2, 0x20000164)  returns 0x00 (0000ms, 0697ms total)
T1CC0 001:560 JLINK_WriteReg(R3, 0x00000000)  returns 0x00 (0000ms, 0697ms total)
T1CC0 001:560 JLINK_WriteReg(R4, 0x00000000)  returns 0x00 (0000ms, 0697ms total)
T1CC0 001:560 JLINK_WriteReg(R5, 0x00000000)  returns 0x00 (0000ms, 0697ms total)
T1CC0 001:560 JLINK_WriteReg(R6, 0x00000000)  returns 0x00 (0000ms, 0697ms total)
T1CC0 001:560 JLINK_WriteReg(R7, 0x00000000)  returns 0x00 (0000ms, 0697ms total)
T1CC0 001:560 JLINK_WriteReg(R8, 0x00000000)  returns 0x00 (0000ms, 0697ms total)
T1CC0 001:560 JLINK_WriteReg(R9, 0x20000160)  returns 0x00 (0000ms, 0697ms total)
T1CC0 001:560 JLINK_WriteReg(R10, 0x00000000)  returns 0x00 (0000ms, 0697ms total)
T1CC0 001:560 JLINK_WriteReg(R11, 0x00000000)  returns 0x00 (0000ms, 0697ms total)
T1CC0 001:560 JLINK_WriteReg(R12, 0x00000000)  returns 0x00 (0000ms, 0697ms total)
T1CC0 001:560 JLINK_WriteReg(R13 (SP), 0x20000800)  returns 0x00 (0000ms, 0697ms total)
T1CC0 001:560 JLINK_WriteReg(R14, 0x20000001)  returns 0x00 (0000ms, 0697ms total)
T1CC0 001:560 JLINK_WriteReg(R15 (PC), 0x200000F4)  returns 0x00 (0000ms, 0697ms total)
T1CC0 001:560 JLINK_WriteReg(XPSR, 0x01000000)  returns 0x00 (0000ms, 0697ms total)
T1CC0 001:560 JLINK_WriteReg(MSP, 0x20000800)  returns 0x00 (0000ms, 0697ms total)
T1CC0 001:560 JLINK_WriteReg(PSP, 0x20000800)  returns 0x00 (0000ms, 0697ms total)
T1CC0 001:560 JLINK_WriteReg(CFBP, 0x00000000)  returns 0x00 (0000ms, 0697ms total)
T1CC0 001:560 JLINK_SetBPEx(Addr = 0x20000000, Type = 0xFFFFFFF2)  returns 0x00000007 (0000ms, 0697ms total)
T1CC0 001:560 JLINK_Go() (0002ms, 0699ms total)
T1CC0 001:562 JLINK_IsHalted()  returns FALSE (0001ms, 0700ms total)
T1CC0 001:614 JLINK_IsHalted() -- CPU_ReadMem(2 bytes @ 0x20000000)  returns TRUE (0004ms, 0703ms total)
T1CC0 001:618 JLINK_ReadReg(R15 (PC))  returns 0x20000000 (0000ms, 0699ms total)
T1CC0 001:618 JLINK_ClrBPEx(BPHandle = 0x00000007)  returns 0x00 (0000ms, 0699ms total)
T1CC0 001:618 JLINK_ReadReg(R0)  returns 0x00000000 (0000ms, 0699ms total)
T1CC0 001:620 JLINK_WriteMem(0x20000164, 0x0400 Bytes, ...) -- Data:  12 0A C2 F1 04 04 D3 40 42 78 A2 40 84 78 1C 40 ... -- CPU_WriteMem(1024 bytes @ 0x20000164)  returns 0x400 (0011ms, 0710ms total)
T1CC0 001:631 JLINK_WriteReg(R0, 0x08000C00)  returns 0x00 (0000ms, 0710ms total)
T1CC0 001:631 JLINK_WriteReg(R1, 0x00000400)  returns 0x00 (0000ms, 0710ms total)
T1CC0 001:631 JLINK_WriteReg(R2, 0x20000164)  returns 0x00 (0000ms, 0710ms total)
T1CC0 001:631 JLINK_WriteReg(R3, 0x00000000)  returns 0x00 (0000ms, 0710ms total)
T1CC0 001:631 JLINK_WriteReg(R4, 0x00000000)  returns 0x00 (0000ms, 0710ms total)
T1CC0 001:631 JLINK_WriteReg(R5, 0x00000000)  returns 0x00 (0000ms, 0710ms total)
T1CC0 001:631 JLINK_WriteReg(R6, 0x00000000)  returns 0x00 (0000ms, 0710ms total)
T1CC0 001:631 JLINK_WriteReg(R7, 0x00000000)  returns 0x00 (0000ms, 0710ms total)
T1CC0 001:631 JLINK_WriteReg(R8, 0x00000000)  returns 0x00 (0000ms, 0710ms total)
T1CC0 001:631 JLINK_WriteReg(R9, 0x20000160)  returns 0x00 (0000ms, 0710ms total)
T1CC0 001:631 JLINK_WriteReg(R10, 0x00000000)  returns 0x00 (0000ms, 0710ms total)
T1CC0 001:631 JLINK_WriteReg(R11, 0x00000000)  returns 0x00 (0000ms, 0710ms total)
T1CC0 001:631 JLINK_WriteReg(R12, 0x00000000)  returns 0x00 (0000ms, 0710ms total)
T1CC0 001:631 JLINK_WriteReg(R13 (SP), 0x20000800)  returns 0x00 (0000ms, 0710ms total)
T1CC0 001:631 JLINK_WriteReg(R14, 0x20000001)  returns 0x00 (0000ms, 0710ms total)
T1CC0 001:631 JLINK_WriteReg(R15 (PC), 0x200000F4)  returns 0x00 (0000ms, 0710ms total)
T1CC0 001:631 JLINK_WriteReg(XPSR, 0x01000000)  returns 0x00 (0000ms, 0710ms total)
T1CC0 001:632 JLINK_WriteReg(MSP, 0x20000800)  returns 0x00 (0000ms, 0711ms total)
T1CC0 001:632 JLINK_WriteReg(PSP, 0x20000800)  returns 0x00 (0000ms, 0711ms total)
T1CC0 001:632 JLINK_WriteReg(CFBP, 0x00000000)  returns 0x00 (0000ms, 0711ms total)
T1CC0 001:632 JLINK_SetBPEx(Addr = 0x20000000, Type = 0xFFFFFFF2)  returns 0x00000008 (0000ms, 0711ms total)
T1CC0 001:632 JLINK_Go() (0002ms, 0713ms total)
T1CC0 001:634 JLINK_IsHalted()  returns FALSE (0001ms, 0714ms total)
T1CC0 001:636 JLINK_IsHalted()  returns FALSE (0000ms, 0713ms total)
T1CC0 001:637 JLINK_IsHalted()  returns FALSE (0000ms, 0713ms total)
T1CC0 001:638 JLINK_IsHalted()  returns FALSE (0000ms, 0713ms total)
T1CC0 001:639 JLINK_IsHalted()  returns FALSE (0000ms, 0713ms total)
T1CC0 001:640 JLINK_IsHalted()  returns FALSE (0000ms, 0713ms total)
T1CC0 001:641 JLINK_IsHalted()  returns FALSE (0000ms, 0713ms total)
T1CC0 001:642 JLINK_IsHalted()  returns FALSE (0000ms, 0713ms total)
T1CC0 001:643 JLINK_IsHalted()  returns FALSE (0000ms, 0713ms total)
T1CC0 001:644 JLINK_IsHalted()  returns FALSE (0000ms, 0713ms total)
T1CC0 001:645 JLINK_IsHalted()  returns FALSE (0000ms, 0713ms total)
T1CC0 001:646 JLINK_IsHalted()  returns FALSE (0000ms, 0713ms total)
T1CC0 001:653 JLINK_IsHalted()  returns FALSE (0000ms, 0713ms total)
T1CC0 001:654 JLINK_IsHalted()  returns FALSE (0000ms, 0713ms total)
T1CC0 001:655 JLINK_IsHalted()  returns FALSE (0000ms, 0713ms total)
T1CC0 001:656 JLINK_IsHalted()  returns FALSE (0000ms, 0713ms total)
T1CC0 001:657 JLINK_IsHalted()  returns FALSE (0000ms, 0713ms total)
T1CC0 001:658 JLINK_IsHalted()  returns FALSE (0000ms, 0713ms total)
T1CC0 001:659 JLINK_IsHalted()  returns FALSE (0000ms, 0713ms total)
T1CC0 001:660 JLINK_IsHalted()  returns FALSE (0000ms, 0713ms total)
T1CC0 001:661 JLINK_IsHalted()  returns FALSE (0000ms, 0713ms total)
T1CC0 001:662 JLINK_IsHalted()  returns FALSE (0000ms, 0713ms total)
T1CC0 001:707 JLINK_IsHalted() -- CPU_ReadMem(2 bytes @ 0x20000000)  returns TRUE (0004ms, 0717ms total)
T1CC0 001:711 JLINK_ReadReg(R15 (PC))  returns 0x20000000 (0000ms, 0713ms total)
T1CC0 001:711 JLINK_ClrBPEx(BPHandle = 0x00000008)  returns 0x00 (0000ms, 0713ms total)
T1CC0 001:711 JLINK_ReadReg(R0)  returns 0x00000000 (0000ms, 0713ms total)
T1CC0 001:712 JLINK_WriteMem(0x20000164, 0x0400 Bytes, ...) -- Data:  18 B5 00 20 4F F4 A0 64 00 90 31 20 FF F7 80 FF ... -- CPU_WriteMem(1024 bytes @ 0x20000164)  returns 0x400 (0012ms, 0725ms total)
T1CC0 001:724 JLINK_WriteReg(R0, 0x08001000)  returns 0x00 (0000ms, 0725ms total)
T1CC0 001:724 JLINK_WriteReg(R1, 0x00000400)  returns 0x00 (0000ms, 0725ms total)
T1CC0 001:724 JLINK_WriteReg(R2, 0x20000164)  returns 0x00 (0000ms, 0725ms total)
T1CC0 001:724 JLINK_WriteReg(R3, 0x00000000)  returns 0x00 (0000ms, 0725ms total)
T1CC0 001:724 JLINK_WriteReg(R4, 0x00000000)  returns 0x00 (0000ms, 0725ms total)
T1CC0 001:724 JLINK_WriteReg(R5, 0x00000000)  returns 0x00 (0000ms, 0725ms total)
T1CC0 001:724 JLINK_WriteReg(R6, 0x00000000)  returns 0x00 (0000ms, 0725ms total)
T1CC0 001:724 JLINK_WriteReg(R7, 0x00000000)  returns 0x00 (0000ms, 0725ms total)
T1CC0 001:724 JLINK_WriteReg(R8, 0x00000000)  returns 0x00 (0000ms, 0725ms total)
T1CC0 001:724 JLINK_WriteReg(R9, 0x20000160)  returns 0x00 (0000ms, 0725ms total)
T1CC0 001:724 JLINK_WriteReg(R10, 0x00000000)  returns 0x00 (0000ms, 0725ms total)
T1CC0 001:724 JLINK_WriteReg(R11, 0x00000000)  returns 0x00 (0000ms, 0725ms total)
T1CC0 001:724 JLINK_WriteReg(R12, 0x00000000)  returns 0x00 (0000ms, 0725ms total)
T1CC0 001:724 JLINK_WriteReg(R13 (SP), 0x20000800)  returns 0x00 (0000ms, 0725ms total)
T1CC0 001:724 JLINK_WriteReg(R14, 0x20000001)  returns 0x00 (0000ms, 0725ms total)
T1CC0 001:724 JLINK_WriteReg(R15 (PC), 0x200000F4)  returns 0x00 (0000ms, 0725ms total)
T1CC0 001:724 JLINK_WriteReg(XPSR, 0x01000000)  returns 0x00 (0000ms, 0725ms total)
T1CC0 001:724 JLINK_WriteReg(MSP, 0x20000800)  returns 0x00 (0000ms, 0725ms total)
T1CC0 001:724 JLINK_WriteReg(PSP, 0x20000800)  returns 0x00 (0000ms, 0725ms total)
T1CC0 001:724 JLINK_WriteReg(CFBP, 0x00000000)  returns 0x00 (0000ms, 0725ms total)
T1CC0 001:724 JLINK_SetBPEx(Addr = 0x20000000, Type = 0xFFFFFFF2)  returns 0x00000009 (0000ms, 0725ms total)
T1CC0 001:724 JLINK_Go() (0002ms, 0727ms total)
T1CC0 001:726 JLINK_IsHalted()  returns FALSE (0001ms, 0728ms total)
T1CC0 001:733 JLINK_IsHalted()  returns FALSE (0000ms, 0727ms total)
T1CC0 001:734 JLINK_IsHalted()  returns FALSE (0000ms, 0727ms total)
T1CC0 001:735 JLINK_IsHalted()  returns FALSE (0000ms, 0727ms total)
T1CC0 001:736 JLINK_IsHalted()  returns FALSE (0000ms, 0727ms total)
T1CC0 001:737 JLINK_IsHalted()  returns FALSE (0000ms, 0727ms total)
T1CC0 001:738 JLINK_IsHalted()  returns FALSE (0000ms, 0727ms total)
T1CC0 001:739 JLINK_IsHalted()  returns FALSE (0000ms, 0727ms total)
T1CC0 001:740 JLINK_IsHalted()  returns FALSE (0000ms, 0727ms total)
T1CC0 001:749 JLINK_IsHalted()  returns FALSE (0000ms, 0727ms total)
T1CC0 001:750 JLINK_IsHalted()  returns FALSE (0000ms, 0727ms total)
T1CC0 001:751 JLINK_IsHalted()  returns FALSE (0000ms, 0727ms total)
T1CC0 001:752 JLINK_IsHalted()  returns FALSE (0000ms, 0727ms total)
T1CC0 001:753 JLINK_IsHalted()  returns FALSE (0000ms, 0727ms total)
T1CC0 001:754 JLINK_IsHalted()  returns FALSE (0000ms, 0727ms total)
T1CC0 001:755 JLINK_IsHalted()  returns FALSE (0000ms, 0727ms total)
T1CC0 001:756 JLINK_IsHalted()  returns FALSE (0000ms, 0727ms total)
T1CC0 001:757 JLINK_IsHalted() -- CPU_ReadMem(2 bytes @ 0x20000000)  returns TRUE (0004ms, 0731ms total)
T1CC0 001:761 JLINK_ReadReg(R15 (PC))  returns 0x20000000 (0000ms, 0727ms total)
T1CC0 001:761 JLINK_ClrBPEx(BPHandle = 0x00000009)  returns 0x00 (0000ms, 0727ms total)
T1CC0 001:761 JLINK_ReadReg(R0)  returns 0x00000000 (0000ms, 0727ms total)
T1CC0 001:762 JLINK_WriteMem(0x20000164, 0x0400 Bytes, ...) -- Data:  10 B5 00 20 FF F7 F6 FD 01 21 BD E8 10 40 C8 05 ... -- CPU_WriteMem(1024 bytes @ 0x20000164)  returns 0x400 (0011ms, 0738ms total)
T1CC0 001:773 JLINK_WriteReg(R0, 0x08001400)  returns 0x00 (0000ms, 0738ms total)
T1CC0 001:773 JLINK_WriteReg(R1, 0x00000400)  returns 0x00 (0000ms, 0738ms total)
T1CC0 001:773 JLINK_WriteReg(R2, 0x20000164)  returns 0x00 (0000ms, 0738ms total)
T1CC0 001:773 JLINK_WriteReg(R3, 0x00000000)  returns 0x00 (0000ms, 0738ms total)
T1CC0 001:773 JLINK_WriteReg(R4, 0x00000000)  returns 0x00 (0000ms, 0738ms total)
T1CC0 001:773 JLINK_WriteReg(R5, 0x00000000)  returns 0x00 (0000ms, 0738ms total)
T1CC0 001:773 JLINK_WriteReg(R6, 0x00000000)  returns 0x00 (0000ms, 0738ms total)
T1CC0 001:773 JLINK_WriteReg(R7, 0x00000000)  returns 0x00 (0000ms, 0738ms total)
T1CC0 001:773 JLINK_WriteReg(R8, 0x00000000)  returns 0x00 (0000ms, 0738ms total)
T1CC0 001:773 JLINK_WriteReg(R9, 0x20000160)  returns 0x00 (0000ms, 0738ms total)
T1CC0 001:773 JLINK_WriteReg(R10, 0x00000000)  returns 0x00 (0000ms, 0738ms total)
T1CC0 001:774 JLINK_WriteReg(R11, 0x00000000)  returns 0x00 (0000ms, 0739ms total)
T1CC0 001:774 JLINK_WriteReg(R12, 0x00000000)  returns 0x00 (0000ms, 0739ms total)
T1CC0 001:774 JLINK_WriteReg(R13 (SP), 0x20000800)  returns 0x00 (0000ms, 0739ms total)
T1CC0 001:774 JLINK_WriteReg(R14, 0x20000001)  returns 0x00 (0000ms, 0739ms total)
T1CC0 001:774 JLINK_WriteReg(R15 (PC), 0x200000F4)  returns 0x00 (0000ms, 0739ms total)
T1CC0 001:774 JLINK_WriteReg(XPSR, 0x01000000)  returns 0x00 (0000ms, 0739ms total)
T1CC0 001:774 JLINK_WriteReg(MSP, 0x20000800)  returns 0x00 (0000ms, 0739ms total)
T1CC0 001:774 JLINK_WriteReg(PSP, 0x20000800)  returns 0x00 (0000ms, 0739ms total)
T1CC0 001:774 JLINK_WriteReg(CFBP, 0x00000000)  returns 0x00 (0000ms, 0739ms total)
T1CC0 001:774 JLINK_SetBPEx(Addr = 0x20000000, Type = 0xFFFFFFF2)  returns 0x0000000A (0000ms, 0739ms total)
T1CC0 001:774 JLINK_Go() (0002ms, 0741ms total)
T1CC0 001:776 JLINK_IsHalted()  returns FALSE (0000ms, 0741ms total)
T1CC0 001:830 JLINK_IsHalted() -- CPU_ReadMem(2 bytes @ 0x20000000)  returns TRUE (0004ms, 0745ms total)
T1CC0 001:834 JLINK_ReadReg(R15 (PC))  returns 0x20000000 (0000ms, 0741ms total)
T1CC0 001:834 JLINK_ClrBPEx(BPHandle = 0x0000000A)  returns 0x00 (0000ms, 0741ms total)
T1CC0 001:834 JLINK_ReadReg(R0)  returns 0x00000000 (0000ms, 0741ms total)
T1CC0 001:837 JLINK_WriteMem(0x20000164, 0x0400 Bytes, ...) -- Data:  4F F0 00 60 08 60 10 BD 00 10 02 40 00 00 FF F8 ... -- CPU_WriteMem(1024 bytes @ 0x20000164)  returns 0x400 (0012ms, 0753ms total)
T1CC0 001:849 JLINK_WriteReg(R0, 0x08001800)  returns 0x00 (0000ms, 0753ms total)
T1CC0 001:849 JLINK_WriteReg(R1, 0x00000400)  returns 0x00 (0000ms, 0753ms total)
T1CC0 001:849 JLINK_WriteReg(R2, 0x20000164)  returns 0x00 (0001ms, 0754ms total)
T1CC0 001:850 JLINK_WriteReg(R3, 0x00000000)  returns 0x00 (0000ms, 0754ms total)
T1CC0 001:850 JLINK_WriteReg(R4, 0x00000000)  returns 0x00 (0000ms, 0754ms total)
T1CC0 001:850 JLINK_WriteReg(R5, 0x00000000)  returns 0x00 (0000ms, 0754ms total)
T1CC0 001:850 JLINK_WriteReg(R6, 0x00000000)  returns 0x00 (0000ms, 0754ms total)
T1CC0 001:850 JLINK_WriteReg(R7, 0x00000000)  returns 0x00 (0000ms, 0754ms total)
T1CC0 001:850 JLINK_WriteReg(R8, 0x00000000)  returns 0x00 (0000ms, 0754ms total)
T1CC0 001:850 JLINK_WriteReg(R9, 0x20000160)  returns 0x00 (0000ms, 0754ms total)
T1CC0 001:850 JLINK_WriteReg(R10, 0x00000000)  returns 0x00 (0000ms, 0754ms total)
T1CC0 001:850 JLINK_WriteReg(R11, 0x00000000)  returns 0x00 (0000ms, 0754ms total)
T1CC0 001:850 JLINK_WriteReg(R12, 0x00000000)  returns 0x00 (0000ms, 0754ms total)
T1CC0 001:850 JLINK_WriteReg(R13 (SP), 0x20000800)  returns 0x00 (0000ms, 0754ms total)
T1CC0 001:850 JLINK_WriteReg(R14, 0x20000001)  returns 0x00 (0000ms, 0754ms total)
T1CC0 001:850 JLINK_WriteReg(R15 (PC), 0x200000F4)  returns 0x00 (0000ms, 0754ms total)
T1CC0 001:850 JLINK_WriteReg(XPSR, 0x01000000)  returns 0x00 (0000ms, 0754ms total)
T1CC0 001:850 JLINK_WriteReg(MSP, 0x20000800)  returns 0x00 (0000ms, 0754ms total)
T1CC0 001:850 JLINK_WriteReg(PSP, 0x20000800)  returns 0x00 (0000ms, 0754ms total)
T1CC0 001:850 JLINK_WriteReg(CFBP, 0x00000000)  returns 0x00 (0000ms, 0754ms total)
T1CC0 001:850 JLINK_SetBPEx(Addr = 0x20000000, Type = 0xFFFFFFF2)  returns 0x0000000B (0000ms, 0754ms total)
T1CC0 001:850 JLINK_Go() (0002ms, 0756ms total)
T1CC0 001:852 JLINK_IsHalted()  returns FALSE (0001ms, 0757ms total)
T1CC0 002:006 JLINK_IsHalted() -- CPU_ReadMem(2 bytes @ 0x20000000)  returns TRUE (0004ms, 0760ms total)
T1CC0 002:010 JLINK_ReadReg(R15 (PC))  returns 0x20000000 (0000ms, 0756ms total)
T1CC0 002:010 JLINK_ClrBPEx(BPHandle = 0x0000000B)  returns 0x00 (0000ms, 0756ms total)
T1CC0 002:010 JLINK_ReadReg(R0)  returns 0x00000000 (0000ms, 0756ms total)
T1CC0 002:011 JLINK_WriteMem(0x20000164, 0x0400 Bytes, ...) -- Data:  28 78 2E 28 17 D1 15 F8 01 0F 44 F0 04 04 2A 28 ... -- CPU_WriteMem(1024 bytes @ 0x20000164)  returns 0x400 (0011ms, 0767ms total)
T1CC0 002:022 JLINK_WriteReg(R0, 0x08001C00)  returns 0x00 (0000ms, 0767ms total)
T1CC0 002:022 JLINK_WriteReg(R1, 0x00000400)  returns 0x00 (0000ms, 0767ms total)
T1CC0 002:022 JLINK_WriteReg(R2, 0x20000164)  returns 0x00 (0000ms, 0767ms total)
T1CC0 002:022 JLINK_WriteReg(R3, 0x00000000)  returns 0x00 (0000ms, 0767ms total)
T1CC0 002:022 JLINK_WriteReg(R4, 0x00000000)  returns 0x00 (0000ms, 0767ms total)
T1CC0 002:022 JLINK_WriteReg(R5, 0x00000000)  returns 0x00 (0000ms, 0767ms total)
T1CC0 002:022 JLINK_WriteReg(R6, 0x00000000)  returns 0x00 (0000ms, 0767ms total)
T1CC0 002:022 JLINK_WriteReg(R7, 0x00000000)  returns 0x00 (0000ms, 0767ms total)
T1CC0 002:022 JLINK_WriteReg(R8, 0x00000000)  returns 0x00 (0000ms, 0767ms total)
T1CC0 002:022 JLINK_WriteReg(R9, 0x20000160)  returns 0x00 (0000ms, 0767ms total)
T1CC0 002:022 JLINK_WriteReg(R10, 0x00000000)  returns 0x00 (0000ms, 0767ms total)
T1CC0 002:022 JLINK_WriteReg(R11, 0x00000000)  returns 0x00 (0000ms, 0767ms total)
T1CC0 002:022 JLINK_WriteReg(R12, 0x00000000)  returns 0x00 (0000ms, 0767ms total)
T1CC0 002:022 JLINK_WriteReg(R13 (SP), 0x20000800)  returns 0x00 (0000ms, 0767ms total)
T1CC0 002:022 JLINK_WriteReg(R14, 0x20000001)  returns 0x00 (0000ms, 0767ms total)
T1CC0 002:022 JLINK_WriteReg(R15 (PC), 0x200000F4)  returns 0x00 (0000ms, 0767ms total)
T1CC0 002:022 JLINK_WriteReg(XPSR, 0x01000000)  returns 0x00 (0000ms, 0767ms total)
T1CC0 002:022 JLINK_WriteReg(MSP, 0x20000800)  returns 0x00 (0000ms, 0767ms total)
T1CC0 002:022 JLINK_WriteReg(PSP, 0x20000800)  returns 0x00 (0000ms, 0767ms total)
T1CC0 002:022 JLINK_WriteReg(CFBP, 0x00000000)  returns 0x00 (0000ms, 0767ms total)
T1CC0 002:022 JLINK_SetBPEx(Addr = 0x20000000, Type = 0xFFFFFFF2)  returns 0x0000000C (0000ms, 0767ms total)
T1CC0 002:022 JLINK_Go() (0002ms, 0769ms total)
T1CC0 002:024 JLINK_IsHalted()  returns FALSE (0001ms, 0770ms total)
T1CC0 002:099 JLINK_IsHalted() -- CPU_ReadMem(2 bytes @ 0x20000000)  returns TRUE (0004ms, 0773ms total)
T1CC0 002:103 JLINK_ReadReg(R15 (PC))  returns 0x20000000 (0000ms, 0769ms total)
T1CC0 002:103 JLINK_ClrBPEx(BPHandle = 0x0000000C)  returns 0x00 (0000ms, 0769ms total)
T1CC0 002:103 JLINK_ReadReg(R0)  returns 0x00000000 (0000ms, 0769ms total)
T1CC0 002:104 JLINK_WriteMem(0x20000164, 0x0400 Bytes, ...) -- Data:  95 F9 FF F7 13 FC 34 A0 FF F7 98 FD 32 A0 FF F7 ... -- CPU_WriteMem(1024 bytes @ 0x20000164)  returns 0x400 (0011ms, 0780ms total)
T1CC0 002:115 JLINK_WriteReg(R0, 0x08002000)  returns 0x00 (0000ms, 0780ms total)
T1CC0 002:115 JLINK_WriteReg(R1, 0x000003BC)  returns 0x00 (0000ms, 0780ms total)
T1CC0 002:115 JLINK_WriteReg(R2, 0x20000164)  returns 0x00 (0000ms, 0780ms total)
T1CC0 002:115 JLINK_WriteReg(R3, 0x00000000)  returns 0x00 (0000ms, 0780ms total)
T1CC0 002:115 JLINK_WriteReg(R4, 0x00000000)  returns 0x00 (0000ms, 0780ms total)
T1CC0 002:115 JLINK_WriteReg(R5, 0x00000000)  returns 0x00 (0000ms, 0780ms total)
T1CC0 002:115 JLINK_WriteReg(R6, 0x00000000)  returns 0x00 (0000ms, 0780ms total)
T1CC0 002:115 JLINK_WriteReg(R7, 0x00000000)  returns 0x00 (0000ms, 0780ms total)
T1CC0 002:115 JLINK_WriteReg(R8, 0x00000000)  returns 0x00 (0000ms, 0780ms total)
T1CC0 002:115 JLINK_WriteReg(R9, 0x20000160)  returns 0x00 (0000ms, 0780ms total)
T1CC0 002:115 JLINK_WriteReg(R10, 0x00000000)  returns 0x00 (0000ms, 0780ms total)
T1CC0 002:115 JLINK_WriteReg(R11, 0x00000000)  returns 0x00 (0000ms, 0780ms total)
T1CC0 002:115 JLINK_WriteReg(R12, 0x00000000)  returns 0x00 (0000ms, 0780ms total)
T1CC0 002:115 JLINK_WriteReg(R13 (SP), 0x20000800)  returns 0x00 (0000ms, 0780ms total)
T1CC0 002:115 JLINK_WriteReg(R14, 0x20000001)  returns 0x00 (0000ms, 0780ms total)
T1CC0 002:115 JLINK_WriteReg(R15 (PC), 0x200000F4)  returns 0x00 (0000ms, 0780ms total)
T1CC0 002:115 JLINK_WriteReg(XPSR, 0x01000000)  returns 0x00 (0000ms, 0780ms total)
T1CC0 002:115 JLINK_WriteReg(MSP, 0x20000800)  returns 0x00 (0000ms, 0780ms total)
T1CC0 002:115 JLINK_WriteReg(PSP, 0x20000800)  returns 0x00 (0000ms, 0780ms total)
T1CC0 002:115 JLINK_WriteReg(CFBP, 0x00000000)  returns 0x00 (0000ms, 0780ms total)
T1CC0 002:115 JLINK_SetBPEx(Addr = 0x20000000, Type = 0xFFFFFFF2)  returns 0x0000000D (0000ms, 0780ms total)
T1CC0 002:115 JLINK_Go() (0002ms, 0782ms total)
T1CC0 002:117 JLINK_IsHalted()  returns FALSE (0001ms, 0783ms total)
T1CC0 002:189 JLINK_IsHalted() -- CPU_ReadMem(2 bytes @ 0x20000000)  returns TRUE (0004ms, 0786ms total)
T1CC0 002:193 JLINK_ReadReg(R15 (PC))  returns 0x20000000 (0000ms, 0782ms total)
T1CC0 002:193 JLINK_ClrBPEx(BPHandle = 0x0000000D)  returns 0x00 (0000ms, 0782ms total)
T1CC0 002:193 JLINK_ReadReg(R0)  returns 0x00000000 (0000ms, 0782ms total)
T1CC0 002:193 JLINK_WriteReg(R0, 0x00000002)  returns 0x00 (0000ms, 0782ms total)
T1CC0 002:193 JLINK_WriteReg(R1, 0x000003BC)  returns 0x00 (0000ms, 0782ms total)
T1CC0 002:193 JLINK_WriteReg(R2, 0x20000164)  returns 0x00 (0000ms, 0782ms total)
T1CC0 002:193 JLINK_WriteReg(R3, 0x00000000)  returns 0x00 (0000ms, 0782ms total)
T1CC0 002:193 JLINK_WriteReg(R4, 0x00000000)  returns 0x00 (0000ms, 0782ms total)
T1CC0 002:193 JLINK_WriteReg(R5, 0x00000000)  returns 0x00 (0001ms, 0783ms total)
T1CC0 002:194 JLINK_WriteReg(R6, 0x00000000)  returns 0x00 (0000ms, 0783ms total)
T1CC0 002:194 JLINK_WriteReg(R7, 0x00000000)  returns 0x00 (0000ms, 0783ms total)
T1CC0 002:194 JLINK_WriteReg(R8, 0x00000000)  returns 0x00 (0000ms, 0783ms total)
T1CC0 002:194 JLINK_WriteReg(R9, 0x20000160)  returns 0x00 (0000ms, 0783ms total)
T1CC0 002:194 JLINK_WriteReg(R10, 0x00000000)  returns 0x00 (0000ms, 0783ms total)
T1CC0 002:194 JLINK_WriteReg(R11, 0x00000000)  returns 0x00 (0000ms, 0783ms total)
T1CC0 002:194 JLINK_WriteReg(R12, 0x00000000)  returns 0x00 (0000ms, 0783ms total)
T1CC0 002:194 JLINK_WriteReg(R13 (SP), 0x20000800)  returns 0x00 (0000ms, 0783ms total)
T1CC0 002:194 JLINK_WriteReg(R14, 0x20000001)  returns 0x00 (0000ms, 0783ms total)
T1CC0 002:194 JLINK_WriteReg(R15 (PC), 0x2000006A)  returns 0x00 (0000ms, 0783ms total)
T1CC0 002:194 JLINK_WriteReg(XPSR, 0x01000000)  returns 0x00 (0000ms, 0783ms total)
T1CC0 002:194 JLINK_WriteReg(MSP, 0x20000800)  returns 0x00 (0000ms, 0783ms total)
T1CC0 002:194 JLINK_WriteReg(PSP, 0x20000800)  returns 0x00 (0000ms, 0783ms total)
T1CC0 002:194 JLINK_WriteReg(CFBP, 0x00000000)  returns 0x00 (0000ms, 0783ms total)
T1CC0 002:194 JLINK_SetBPEx(Addr = 0x20000000, Type = 0xFFFFFFF2)  returns 0x0000000E (0000ms, 0783ms total)
T1CC0 002:194 JLINK_Go() (0002ms, 0785ms total)
T1CC0 002:196 JLINK_IsHalted() -- CPU_ReadMem(2 bytes @ 0x20000000)  returns TRUE (0004ms, 0789ms total)
T1CC0 002:200 JLINK_ReadReg(R15 (PC))  returns 0x20000000 (0000ms, 0785ms total)
T1CC0 002:200 JLINK_ClrBPEx(BPHandle = 0x0000000E)  returns 0x00 (0000ms, 0785ms total)
T1CC0 002:200 JLINK_ReadReg(R0)  returns 0x00000000 (0000ms, 0785ms total)
T1CC0 002:266 JLINK_WriteMem(0x20000000, 0x0164 Bytes, ...) -- Data:  00 BE 0A E0 0D 78 2D 06 68 40 08 24 40 00 00 D3 ... -- CPU_WriteMem(356 bytes @ 0x20000000)  returns 0x164 (0005ms, 0790ms total)
T1CC0 002:271 JLINK_WriteReg(R0, 0x08000000)  returns 0x00 (0000ms, 0790ms total)
T1CC0 002:271 JLINK_WriteReg(R1, 0x007A1200)  returns 0x00 (0000ms, 0790ms total)
T1CC0 002:271 JLINK_WriteReg(R2, 0x00000003)  returns 0x00 (0000ms, 0790ms total)
T1CC0 002:271 JLINK_WriteReg(R3, 0x00000000)  returns 0x00 (0000ms, 0790ms total)
T1CC0 002:271 JLINK_WriteReg(R4, 0x00000000)  returns 0x00 (0000ms, 0790ms total)
T1CC0 002:271 JLINK_WriteReg(R5, 0x00000000)  returns 0x00 (0000ms, 0790ms total)
T1CC0 002:271 JLINK_WriteReg(R6, 0x00000000)  returns 0x00 (0000ms, 0790ms total)
T1CC0 002:271 JLINK_WriteReg(R7, 0x00000000)  returns 0x00 (0000ms, 0790ms total)
T1CC0 002:271 JLINK_WriteReg(R8, 0x00000000)  returns 0x00 (0000ms, 0790ms total)
T1CC0 002:271 JLINK_WriteReg(R9, 0x20000160)  returns 0x00 (0000ms, 0790ms total)
T1CC0 002:271 JLINK_WriteReg(R10, 0x00000000)  returns 0x00 (0000ms, 0790ms total)
T1CC0 002:271 JLINK_WriteReg(R11, 0x00000000)  returns 0x00 (0000ms, 0790ms total)
T1CC0 002:271 JLINK_WriteReg(R12, 0x00000000)  returns 0x00 (0000ms, 0790ms total)
T1CC0 002:271 JLINK_WriteReg(R13 (SP), 0x20000800)  returns 0x00 (0000ms, 0790ms total)
T1CC0 002:271 JLINK_WriteReg(R14, 0x20000001)  returns 0x00 (0000ms, 0790ms total)
T1CC0 002:271 JLINK_WriteReg(R15 (PC), 0x20000038)  returns 0x00 (0001ms, 0791ms total)
T1CC0 002:272 JLINK_WriteReg(XPSR, 0x01000000)  returns 0x00 (0000ms, 0791ms total)
T1CC0 002:272 JLINK_WriteReg(MSP, 0x20000800)  returns 0x00 (0000ms, 0791ms total)
T1CC0 002:272 JLINK_WriteReg(PSP, 0x20000800)  returns 0x00 (0000ms, 0791ms total)
T1CC0 002:272 JLINK_WriteReg(CFBP, 0x00000000)  returns 0x00 (0000ms, 0791ms total)
T1CC0 002:272 JLINK_SetBPEx(Addr = 0x20000000, Type = 0xFFFFFFF2) -- CPU_ReadMem(2 bytes @ 0x20000000)  returns 0x0000000F (0001ms, 0792ms total)
T1CC0 002:273 JLINK_Go() -- CPU_WriteMem(2 bytes @ 0x20000000) (0002ms, 0794ms total)
T1CC0 002:275 JLINK_IsHalted() -- CPU_ReadMem(2 bytes @ 0x20000000)  returns TRUE (0005ms, 0799ms total)
T1CC0 002:280 JLINK_ReadReg(R15 (PC))  returns 0x20000000 (0000ms, 0794ms total)
T1CC0 002:280 JLINK_ClrBPEx(BPHandle = 0x0000000F)  returns 0x00 (0000ms, 0794ms total)
T1CC0 002:280 JLINK_ReadReg(R0)  returns 0x00000000 (0000ms, 0794ms total)
T1CC0 002:281 JLINK_WriteReg(R0, 0xFFFFFFFF)  returns 0x00 (0000ms, 0794ms total)
T1CC0 002:281 JLINK_WriteReg(R1, 0x08000000)  returns 0x00 (0000ms, 0794ms total)
T1CC0 002:281 JLINK_WriteReg(R2, 0x000023BC)  returns 0x00 (0000ms, 0794ms total)
T1CC0 002:281 JLINK_WriteReg(R3, 0x04C11DB7)  returns 0x00 (0000ms, 0794ms total)
T1CC0 002:281 JLINK_WriteReg(R4, 0x00000000)  returns 0x00 (0000ms, 0794ms total)
T1CC0 002:281 JLINK_WriteReg(R5, 0x00000000)  returns 0x00 (0000ms, 0794ms total)
T1CC0 002:281 JLINK_WriteReg(R6, 0x00000000)  returns 0x00 (0000ms, 0794ms total)
T1CC0 002:281 JLINK_WriteReg(R7, 0x00000000)  returns 0x00 (0000ms, 0794ms total)
T1CC0 002:281 JLINK_WriteReg(R8, 0x00000000)  returns 0x00 (0000ms, 0794ms total)
T1CC0 002:281 JLINK_WriteReg(R9, 0x20000160)  returns 0x00 (0000ms, 0794ms total)
T1CC0 002:281 JLINK_WriteReg(R10, 0x00000000)  returns 0x00 (0000ms, 0794ms total)
T1CC0 002:281 JLINK_WriteReg(R11, 0x00000000)  returns 0x00 (0000ms, 0794ms total)
T1CC0 002:281 JLINK_WriteReg(R12, 0x00000000)  returns 0x00 (0000ms, 0794ms total)
T1CC0 002:281 JLINK_WriteReg(R13 (SP), 0x20000800)  returns 0x00 (0000ms, 0794ms total)
T1CC0 002:281 JLINK_WriteReg(R14, 0x20000001)  returns 0x00 (0000ms, 0794ms total)
T1CC0 002:281 JLINK_WriteReg(R15 (PC), 0x20000002)  returns 0x00 (0000ms, 0794ms total)
T1CC0 002:281 JLINK_WriteReg(XPSR, 0x01000000)  returns 0x00 (0000ms, 0794ms total)
T1CC0 002:281 JLINK_WriteReg(MSP, 0x20000800)  returns 0x00 (0000ms, 0794ms total)
T1CC0 002:281 JLINK_WriteReg(PSP, 0x20000800)  returns 0x00 (0000ms, 0794ms total)
T1CC0 002:281 JLINK_WriteReg(CFBP, 0x00000000)  returns 0x00 (0000ms, 0794ms total)
T1CC0 002:281 JLINK_SetBPEx(Addr = 0x20000000, Type = 0xFFFFFFF2)  returns 0x00000010 (0000ms, 0794ms total)
T1CC0 002:281 JLINK_Go() (0002ms, 0796ms total)
T1CC0 002:283 JLINK_IsHalted()  returns FALSE (0001ms, 0797ms total)
T1CC0 002:379 JLINK_IsHalted()  returns FALSE (0000ms, 0796ms total)
T1CC0 002:456 JLINK_IsHalted() -- CPU_ReadMem(2 bytes @ 0x20000000)  returns TRUE (0004ms, 0800ms total)
T1CC0 002:460 JLINK_ReadReg(R15 (PC))  returns 0x20000000 (0000ms, 0796ms total)
T1CC0 002:460 JLINK_ClrBPEx(BPHandle = 0x00000010)  returns 0x00 (0000ms, 0796ms total)
T1CC0 002:460 JLINK_ReadReg(R0)  returns 0x90AEBD6F (0000ms, 0796ms total)
T1CC0 002:461 JLINK_WriteReg(R0, 0x00000003)  returns 0x00 (0000ms, 0796ms total)
T1CC0 002:461 JLINK_WriteReg(R1, 0x08000000)  returns 0x00 (0000ms, 0796ms total)
T1CC0 002:461 JLINK_WriteReg(R2, 0x000023BC)  returns 0x00 (0000ms, 0796ms total)
T1CC0 002:461 JLINK_WriteReg(R3, 0x04C11DB7)  returns 0x00 (0000ms, 0796ms total)
T1CC0 002:461 JLINK_WriteReg(R4, 0x00000000)  returns 0x00 (0000ms, 0796ms total)
T1CC0 002:461 JLINK_WriteReg(R5, 0x00000000)  returns 0x00 (0000ms, 0796ms total)
T1CC0 002:462 JLINK_WriteReg(R6, 0x00000000)  returns 0x00 (0000ms, 0797ms total)
T1CC0 002:462 JLINK_WriteReg(R7, 0x00000000)  returns 0x00 (0000ms, 0797ms total)
T1CC0 002:462 JLINK_WriteReg(R8, 0x00000000)  returns 0x00 (0000ms, 0797ms total)
T1CC0 002:462 JLINK_WriteReg(R9, 0x20000160)  returns 0x00 (0000ms, 0797ms total)
T1CC0 002:462 JLINK_WriteReg(R10, 0x00000000)  returns 0x00 (0000ms, 0797ms total)
T1CC0 002:462 JLINK_WriteReg(R11, 0x00000000)  returns 0x00 (0000ms, 0797ms total)
T1CC0 002:462 JLINK_WriteReg(R12, 0x00000000)  returns 0x00 (0000ms, 0797ms total)
T1CC0 002:462 JLINK_WriteReg(R13 (SP), 0x20000800)  returns 0x00 (0000ms, 0797ms total)
T1CC0 002:462 JLINK_WriteReg(R14, 0x20000001)  returns 0x00 (0000ms, 0797ms total)
